** sch_path: /home/sushanth/desktop/highspeedscanflop/muxfbff/datamodefall/muxfbff_tb_datamode_fall.sch
Transient Analysis  Wed Apr  8 23:31:19  2026
--------------------------------------------------------------------------------
Index   time            v(c)            v(din)          v(q)            
--------------------------------------------------------------------------------
0	0.000000e+00	1.800000e+00	0.000000e+00	8.361110e-01	
1	1.000000e-14	1.800000e+00	3.600000e-04	8.361110e-01	
2	2.000000e-14	1.800000e+00	7.200000e-04	8.361110e-01	
3	4.000000e-14	1.800000e+00	1.440000e-03	8.361110e-01	
4	8.000000e-14	1.800000e+00	2.880000e-03	8.361110e-01	
5	1.600000e-13	1.800000e+00	5.760000e-03	8.361110e-01	
6	3.200000e-13	1.800000e+00	1.152000e-02	8.361110e-01	
7	6.400000e-13	1.800000e+00	2.304000e-02	8.361110e-01	
8	1.280000e-12	1.800000e+00	4.608000e-02	8.361110e-01	
9	2.280000e-12	1.800000e+00	8.208000e-02	8.361110e-01	
10	3.280000e-12	1.800000e+00	1.180800e-01	8.361110e-01	
11	4.280000e-12	1.800000e+00	1.540800e-01	8.361110e-01	
12	5.280000e-12	1.800000e+00	1.900800e-01	8.361110e-01	
13	6.280000e-12	1.800000e+00	2.260800e-01	8.361110e-01	
14	7.280000e-12	1.800000e+00	2.620800e-01	8.361110e-01	
15	8.280000e-12	1.800000e+00	2.980800e-01	8.361110e-01	
16	9.280000e-12	1.800000e+00	3.340800e-01	8.361110e-01	
17	1.028000e-11	1.800000e+00	3.700800e-01	8.361110e-01	
18	1.128000e-11	1.800000e+00	4.060800e-01	8.361110e-01	
19	1.228000e-11	1.800000e+00	4.420800e-01	8.361110e-01	
20	1.328000e-11	1.800000e+00	4.780800e-01	8.361110e-01	
21	1.428000e-11	1.800000e+00	5.140800e-01	8.361110e-01	
22	1.528000e-11	1.800000e+00	5.500800e-01	8.361110e-01	
23	1.628000e-11	1.800000e+00	5.860800e-01	8.361110e-01	
24	1.728000e-11	1.800000e+00	6.220800e-01	8.361110e-01	
25	1.828000e-11	1.800000e+00	6.580800e-01	8.361110e-01	
26	1.928000e-11	1.800000e+00	6.940800e-01	8.361109e-01	
27	2.028000e-11	1.800000e+00	7.300800e-01	8.361109e-01	
28	2.128000e-11	1.800000e+00	7.660800e-01	8.361109e-01	
29	2.228000e-11	1.800000e+00	8.020800e-01	8.361109e-01	
30	2.328000e-11	1.800000e+00	8.380800e-01	8.361109e-01	
31	2.428000e-11	1.800000e+00	8.740800e-01	8.361109e-01	
32	2.528000e-11	1.800000e+00	9.100800e-01	8.361109e-01	
33	2.628000e-11	1.800000e+00	9.460800e-01	8.361109e-01	
34	2.728000e-11	1.800000e+00	9.820800e-01	8.361109e-01	
35	2.828000e-11	1.800000e+00	1.018080e+00	8.361110e-01	
36	2.928000e-11	1.800000e+00	1.054080e+00	8.361110e-01	
37	3.028000e-11	1.800000e+00	1.090080e+00	8.361111e-01	
38	3.128000e-11	1.800000e+00	1.126080e+00	8.361113e-01	
39	3.228000e-11	1.800000e+00	1.162080e+00	8.361115e-01	
40	3.328000e-11	1.800000e+00	1.198080e+00	8.361117e-01	
41	3.428000e-11	1.800000e+00	1.234080e+00	8.361120e-01	
42	3.528000e-11	1.800000e+00	1.270080e+00	8.361124e-01	
43	3.628000e-11	1.800000e+00	1.306080e+00	8.361129e-01	
44	3.728000e-11	1.800000e+00	1.342080e+00	8.361135e-01	
45	3.828000e-11	1.800000e+00	1.378080e+00	8.361142e-01	
46	3.928000e-11	1.800000e+00	1.414080e+00	8.361151e-01	
47	4.028000e-11	1.800000e+00	1.450080e+00	8.361161e-01	
48	4.128000e-11	1.800000e+00	1.486080e+00	8.361173e-01	
49	4.228000e-11	1.800000e+00	1.522080e+00	8.361186e-01	
50	4.328000e-11	1.800000e+00	1.558080e+00	8.361202e-01	
51	4.428000e-11	1.800000e+00	1.594080e+00	8.361220e-01	
52	4.528000e-11	1.800000e+00	1.630080e+00	8.361240e-01	
53	4.628000e-11	1.800000e+00	1.666080e+00	8.361262e-01	
54	4.728000e-11	1.800000e+00	1.702080e+00	8.361287e-01	

Index   time            v(c)            v(din)          v(q)            
--------------------------------------------------------------------------------
55	4.828000e-11	1.800000e+00	1.738080e+00	8.361314e-01	
56	4.914000e-11	1.800000e+00	1.769040e+00	8.361339e-01	
57	5.000000e-11	1.800000e+00	1.800000e+00	8.361366e-01	
58	5.010000e-11	1.800000e+00	1.800000e+00	8.361369e-01	
59	5.030000e-11	1.800000e+00	1.800000e+00	8.361376e-01	
60	5.070000e-11	1.800000e+00	1.800000e+00	8.361389e-01	
61	5.150000e-11	1.800000e+00	1.800000e+00	8.361417e-01	
62	5.250000e-11	1.800000e+00	1.800000e+00	8.361454e-01	
63	5.350000e-11	1.800000e+00	1.800000e+00	8.361494e-01	
64	5.450000e-11	1.800000e+00	1.800000e+00	8.361536e-01	
65	5.550000e-11	1.800000e+00	1.800000e+00	8.361580e-01	
66	5.650000e-11	1.800000e+00	1.800000e+00	8.361626e-01	
67	5.750000e-11	1.800000e+00	1.800000e+00	8.361675e-01	
68	5.850000e-11	1.800000e+00	1.800000e+00	8.361725e-01	
69	5.950000e-11	1.800000e+00	1.800000e+00	8.361778e-01	
70	6.050000e-11	1.800000e+00	1.800000e+00	8.361832e-01	
71	6.150000e-11	1.800000e+00	1.800000e+00	8.361888e-01	
72	6.250000e-11	1.800000e+00	1.800000e+00	8.361946e-01	
73	6.350000e-11	1.800000e+00	1.800000e+00	8.362005e-01	
74	6.450000e-11	1.800000e+00	1.800000e+00	8.362066e-01	
75	6.550000e-11	1.800000e+00	1.800000e+00	8.362129e-01	
76	6.650000e-11	1.800000e+00	1.800000e+00	8.362192e-01	
77	6.750000e-11	1.800000e+00	1.800000e+00	8.362258e-01	
78	6.850000e-11	1.800000e+00	1.800000e+00	8.362324e-01	
79	6.950000e-11	1.800000e+00	1.800000e+00	8.362392e-01	
80	7.050000e-11	1.800000e+00	1.800000e+00	8.362460e-01	
81	7.150000e-11	1.800000e+00	1.800000e+00	8.362530e-01	
82	7.250000e-11	1.800000e+00	1.800000e+00	8.362601e-01	
83	7.350000e-11	1.800000e+00	1.800000e+00	8.362672e-01	
84	7.450000e-11	1.800000e+00	1.800000e+00	8.362745e-01	
85	7.550000e-11	1.800000e+00	1.800000e+00	8.362818e-01	
86	7.650000e-11	1.800000e+00	1.800000e+00	8.362892e-01	
87	7.750000e-11	1.800000e+00	1.800000e+00	8.362966e-01	
88	7.850000e-11	1.800000e+00	1.800000e+00	8.363041e-01	
89	7.950000e-11	1.800000e+00	1.800000e+00	8.363117e-01	
90	8.050000e-11	1.800000e+00	1.800000e+00	8.363193e-01	
91	8.150000e-11	1.800000e+00	1.800000e+00	8.363269e-01	
92	8.250000e-11	1.800000e+00	1.800000e+00	8.363346e-01	
93	8.350000e-11	1.800000e+00	1.800000e+00	8.363423e-01	
94	8.450000e-11	1.800000e+00	1.800000e+00	8.363500e-01	
95	8.550000e-11	1.800000e+00	1.800000e+00	8.363578e-01	
96	8.650000e-11	1.800000e+00	1.800000e+00	8.363655e-01	
97	8.750000e-11	1.800000e+00	1.800000e+00	8.363733e-01	
98	8.850000e-11	1.800000e+00	1.800000e+00	8.363810e-01	
99	8.950000e-11	1.800000e+00	1.800000e+00	8.363888e-01	
100	9.050000e-11	1.800000e+00	1.800000e+00	8.363965e-01	
101	9.150000e-11	1.800000e+00	1.800000e+00	8.364043e-01	
102	9.250000e-11	1.800000e+00	1.800000e+00	8.364120e-01	
103	9.350000e-11	1.800000e+00	1.800000e+00	8.364197e-01	
104	9.450000e-11	1.800000e+00	1.800000e+00	8.364273e-01	
105	9.550000e-11	1.800000e+00	1.800000e+00	8.364350e-01	
106	9.650000e-11	1.800000e+00	1.800000e+00	8.364426e-01	
107	9.750000e-11	1.800000e+00	1.800000e+00	8.364501e-01	
108	9.850000e-11	1.800000e+00	1.800000e+00	8.364576e-01	
109	9.950000e-11	1.800000e+00	1.800000e+00	8.364651e-01	
110	1.005000e-10	1.800000e+00	1.800000e+00	8.364725e-01	
111	1.015000e-10	1.800000e+00	1.800000e+00	8.364798e-01	
112	1.025000e-10	1.800000e+00	1.800000e+00	8.364871e-01	

Index   time            v(c)            v(din)          v(q)            
--------------------------------------------------------------------------------
113	1.035000e-10	1.800000e+00	1.800000e+00	8.364944e-01	
114	1.045000e-10	1.800000e+00	1.800000e+00	8.365015e-01	
115	1.055000e-10	1.800000e+00	1.800000e+00	8.365086e-01	
116	1.065000e-10	1.800000e+00	1.800000e+00	8.365156e-01	
117	1.075000e-10	1.800000e+00	1.800000e+00	8.365226e-01	
118	1.085000e-10	1.800000e+00	1.800000e+00	8.365294e-01	
119	1.095000e-10	1.800000e+00	1.800000e+00	8.365362e-01	
120	1.105000e-10	1.800000e+00	1.800000e+00	8.365429e-01	
121	1.115000e-10	1.800000e+00	1.800000e+00	8.365495e-01	
122	1.125000e-10	1.800000e+00	1.800000e+00	8.365560e-01	
123	1.135000e-10	1.800000e+00	1.800000e+00	8.365624e-01	
124	1.145000e-10	1.800000e+00	1.800000e+00	8.365687e-01	
125	1.155000e-10	1.800000e+00	1.800000e+00	8.365749e-01	
126	1.165000e-10	1.800000e+00	1.800000e+00	8.365809e-01	
127	1.175000e-10	1.800000e+00	1.800000e+00	8.365869e-01	
128	1.185000e-10	1.800000e+00	1.800000e+00	8.365928e-01	
129	1.195000e-10	1.800000e+00	1.800000e+00	8.365985e-01	
130	1.205000e-10	1.800000e+00	1.800000e+00	8.366041e-01	
131	1.215000e-10	1.800000e+00	1.800000e+00	8.366096e-01	
132	1.225000e-10	1.800000e+00	1.800000e+00	8.366150e-01	
133	1.235000e-10	1.800000e+00	1.800000e+00	8.366202e-01	
134	1.245000e-10	1.800000e+00	1.800000e+00	8.366254e-01	
135	1.255000e-10	1.800000e+00	1.800000e+00	8.366304e-01	
136	1.265000e-10	1.800000e+00	1.800000e+00	8.366352e-01	
137	1.275000e-10	1.800000e+00	1.800000e+00	8.366399e-01	
138	1.285000e-10	1.800000e+00	1.800000e+00	8.366445e-01	
139	1.295000e-10	1.800000e+00	1.800000e+00	8.366489e-01	
140	1.305000e-10	1.800000e+00	1.800000e+00	8.366532e-01	
141	1.315000e-10	1.800000e+00	1.800000e+00	8.366574e-01	
142	1.325000e-10	1.800000e+00	1.800000e+00	8.366614e-01	
143	1.335000e-10	1.800000e+00	1.800000e+00	8.366653e-01	
144	1.345000e-10	1.800000e+00	1.800000e+00	8.366690e-01	
145	1.355000e-10	1.800000e+00	1.800000e+00	8.366725e-01	
146	1.365000e-10	1.800000e+00	1.800000e+00	8.366759e-01	
147	1.375000e-10	1.800000e+00	1.800000e+00	8.366792e-01	
148	1.385000e-10	1.800000e+00	1.800000e+00	8.366822e-01	
149	1.395000e-10	1.800000e+00	1.800000e+00	8.366852e-01	
150	1.405000e-10	1.800000e+00	1.800000e+00	8.366879e-01	
151	1.415000e-10	1.800000e+00	1.800000e+00	8.366905e-01	
152	1.425000e-10	1.800000e+00	1.800000e+00	8.366930e-01	
153	1.435000e-10	1.800000e+00	1.800000e+00	8.366953e-01	
154	1.445000e-10	1.800000e+00	1.800000e+00	8.366974e-01	
155	1.455000e-10	1.800000e+00	1.800000e+00	8.366993e-01	
156	1.465000e-10	1.800000e+00	1.800000e+00	8.367011e-01	
157	1.475000e-10	1.800000e+00	1.800000e+00	8.367027e-01	
158	1.485000e-10	1.800000e+00	1.800000e+00	8.367041e-01	
159	1.495000e-10	1.800000e+00	1.800000e+00	8.367054e-01	
160	1.505000e-10	1.800000e+00	1.800000e+00	8.367064e-01	
161	1.515000e-10	1.800000e+00	1.800000e+00	8.367073e-01	
162	1.525000e-10	1.800000e+00	1.800000e+00	8.367080e-01	
163	1.535000e-10	1.800000e+00	1.800000e+00	8.367086e-01	
164	1.545000e-10	1.800000e+00	1.800000e+00	8.367089e-01	
165	1.555000e-10	1.800000e+00	1.800000e+00	8.367091e-01	
166	1.565000e-10	1.800000e+00	1.800000e+00	8.367091e-01	
167	1.575000e-10	1.800000e+00	1.800000e+00	8.367088e-01	
168	1.585000e-10	1.800000e+00	1.800000e+00	8.367084e-01	
169	1.595000e-10	1.800000e+00	1.800000e+00	8.367078e-01	
170	1.605000e-10	1.800000e+00	1.800000e+00	8.367070e-01	

Index   time            v(c)            v(din)          v(q)            
--------------------------------------------------------------------------------
171	1.615000e-10	1.800000e+00	1.800000e+00	8.367060e-01	
172	1.625000e-10	1.800000e+00	1.800000e+00	8.367049e-01	
173	1.635000e-10	1.800000e+00	1.800000e+00	8.367035e-01	
174	1.645000e-10	1.800000e+00	1.800000e+00	8.367019e-01	
175	1.655000e-10	1.800000e+00	1.800000e+00	8.367001e-01	
176	1.665000e-10	1.800000e+00	1.800000e+00	8.366981e-01	
177	1.675000e-10	1.800000e+00	1.800000e+00	8.366959e-01	
178	1.685000e-10	1.800000e+00	1.800000e+00	8.366935e-01	
179	1.695000e-10	1.800000e+00	1.800000e+00	8.366908e-01	
180	1.705000e-10	1.800000e+00	1.800000e+00	8.366880e-01	
181	1.715000e-10	1.800000e+00	1.800000e+00	8.366850e-01	
182	1.725000e-10	1.800000e+00	1.800000e+00	8.366817e-01	
183	1.735000e-10	1.800000e+00	1.800000e+00	8.366782e-01	
184	1.745000e-10	1.800000e+00	1.800000e+00	8.366745e-01	
185	1.755000e-10	1.800000e+00	1.800000e+00	8.366705e-01	
186	1.765000e-10	1.800000e+00	1.800000e+00	8.366664e-01	
187	1.775000e-10	1.800000e+00	1.800000e+00	8.366620e-01	
188	1.785000e-10	1.800000e+00	1.800000e+00	8.366574e-01	
189	1.795000e-10	1.800000e+00	1.800000e+00	8.366525e-01	
190	1.805000e-10	1.800000e+00	1.800000e+00	8.366475e-01	
191	1.815000e-10	1.800000e+00	1.800000e+00	8.366421e-01	
192	1.825000e-10	1.800000e+00	1.800000e+00	8.366366e-01	
193	1.835000e-10	1.800000e+00	1.800000e+00	8.366308e-01	
194	1.845000e-10	1.800000e+00	1.800000e+00	8.366248e-01	
195	1.855000e-10	1.800000e+00	1.800000e+00	8.366185e-01	
196	1.865000e-10	1.800000e+00	1.800000e+00	8.366120e-01	
197	1.875000e-10	1.800000e+00	1.800000e+00	8.366052e-01	
198	1.885000e-10	1.800000e+00	1.800000e+00	8.365982e-01	
199	1.895000e-10	1.800000e+00	1.800000e+00	8.365909e-01	
200	1.905000e-10	1.800000e+00	1.800000e+00	8.365834e-01	
201	1.915000e-10	1.800000e+00	1.800000e+00	8.365756e-01	
202	1.925000e-10	1.800000e+00	1.800000e+00	8.365675e-01	
203	1.935000e-10	1.800000e+00	1.800000e+00	8.365592e-01	
204	1.945000e-10	1.800000e+00	1.800000e+00	8.365506e-01	
205	1.955000e-10	1.800000e+00	1.800000e+00	8.365418e-01	
206	1.965000e-10	1.800000e+00	1.800000e+00	8.365327e-01	
207	1.975000e-10	1.800000e+00	1.800000e+00	8.365233e-01	
208	1.985000e-10	1.800000e+00	1.800000e+00	8.365136e-01	
209	1.995000e-10	1.800000e+00	1.800000e+00	8.365037e-01	
210	2.005000e-10	1.800000e+00	1.800000e+00	8.364935e-01	
211	2.015000e-10	1.800000e+00	1.800000e+00	8.364830e-01	
212	2.025000e-10	1.800000e+00	1.800000e+00	8.364722e-01	
213	2.035000e-10	1.800000e+00	1.800000e+00	8.364612e-01	
214	2.045000e-10	1.800000e+00	1.800000e+00	8.364498e-01	
215	2.055000e-10	1.800000e+00	1.800000e+00	8.364381e-01	
216	2.065000e-10	1.800000e+00	1.800000e+00	8.364262e-01	
217	2.075000e-10	1.800000e+00	1.800000e+00	8.364140e-01	
218	2.085000e-10	1.800000e+00	1.800000e+00	8.364014e-01	
219	2.095000e-10	1.800000e+00	1.800000e+00	8.363886e-01	
220	2.105000e-10	1.800000e+00	1.800000e+00	8.363754e-01	
221	2.115000e-10	1.800000e+00	1.800000e+00	8.363619e-01	
222	2.125000e-10	1.800000e+00	1.800000e+00	8.363482e-01	
223	2.135000e-10	1.800000e+00	1.800000e+00	8.363341e-01	
224	2.145000e-10	1.800000e+00	1.800000e+00	8.363197e-01	
225	2.155000e-10	1.800000e+00	1.800000e+00	8.363049e-01	
226	2.165000e-10	1.800000e+00	1.800000e+00	8.362899e-01	
227	2.175000e-10	1.800000e+00	1.800000e+00	8.362745e-01	
228	2.185000e-10	1.800000e+00	1.800000e+00	8.362588e-01	

Index   time            v(c)            v(din)          v(q)            
--------------------------------------------------------------------------------
229	2.195000e-10	1.800000e+00	1.800000e+00	8.362427e-01	
230	2.205000e-10	1.800000e+00	1.800000e+00	8.362263e-01	
231	2.215000e-10	1.800000e+00	1.800000e+00	8.362096e-01	
232	2.225000e-10	1.800000e+00	1.800000e+00	8.361925e-01	
233	2.235000e-10	1.800000e+00	1.800000e+00	8.361751e-01	
234	2.245000e-10	1.800000e+00	1.800000e+00	8.361573e-01	
235	2.255000e-10	1.800000e+00	1.800000e+00	8.361392e-01	
236	2.265000e-10	1.800000e+00	1.800000e+00	8.361207e-01	
237	2.275000e-10	1.800000e+00	1.800000e+00	8.361019e-01	
238	2.285000e-10	1.800000e+00	1.800000e+00	8.360827e-01	
239	2.295000e-10	1.800000e+00	1.800000e+00	8.360631e-01	
240	2.305000e-10	1.800000e+00	1.800000e+00	8.360432e-01	
241	2.315000e-10	1.800000e+00	1.800000e+00	8.360228e-01	
242	2.325000e-10	1.800000e+00	1.800000e+00	8.360021e-01	
243	2.335000e-10	1.800000e+00	1.800000e+00	8.359810e-01	
244	2.345000e-10	1.800000e+00	1.800000e+00	8.359596e-01	
245	2.355000e-10	1.800000e+00	1.800000e+00	8.359377e-01	
246	2.365000e-10	1.800000e+00	1.800000e+00	8.359154e-01	
247	2.375000e-10	1.800000e+00	1.800000e+00	8.358928e-01	
248	2.385000e-10	1.800000e+00	1.800000e+00	8.358697e-01	
249	2.395000e-10	1.800000e+00	1.800000e+00	8.358463e-01	
250	2.405000e-10	1.800000e+00	1.800000e+00	8.358224e-01	
251	2.415000e-10	1.800000e+00	1.800000e+00	8.357981e-01	
252	2.425000e-10	1.800000e+00	1.800000e+00	8.357734e-01	
253	2.435000e-10	1.800000e+00	1.800000e+00	8.357482e-01	
254	2.445000e-10	1.800000e+00	1.800000e+00	8.357227e-01	
255	2.455000e-10	1.800000e+00	1.800000e+00	8.356967e-01	
256	2.465000e-10	1.800000e+00	1.800000e+00	8.356702e-01	
257	2.475000e-10	1.800000e+00	1.800000e+00	8.356434e-01	
258	2.485000e-10	1.800000e+00	1.800000e+00	8.356160e-01	
259	2.495000e-10	1.800000e+00	1.800000e+00	8.355883e-01	
260	2.505000e-10	1.800000e+00	1.800000e+00	8.355600e-01	
261	2.515000e-10	1.800000e+00	1.800000e+00	8.355313e-01	
262	2.525000e-10	1.800000e+00	1.800000e+00	8.355022e-01	
263	2.535000e-10	1.800000e+00	1.800000e+00	8.354725e-01	
264	2.545000e-10	1.800000e+00	1.800000e+00	8.354424e-01	
265	2.555000e-10	1.800000e+00	1.800000e+00	8.354119e-01	
266	2.565000e-10	1.800000e+00	1.800000e+00	8.353808e-01	
267	2.575000e-10	1.800000e+00	1.800000e+00	8.353492e-01	
268	2.585000e-10	1.800000e+00	1.800000e+00	8.353172e-01	
269	2.595000e-10	1.800000e+00	1.800000e+00	8.352846e-01	
270	2.605000e-10	1.800000e+00	1.800000e+00	8.352516e-01	
271	2.615000e-10	1.800000e+00	1.800000e+00	8.352180e-01	
272	2.625000e-10	1.800000e+00	1.800000e+00	8.351839e-01	
273	2.635000e-10	1.800000e+00	1.800000e+00	8.351493e-01	
274	2.645000e-10	1.800000e+00	1.800000e+00	8.351142e-01	
275	2.655000e-10	1.800000e+00	1.800000e+00	8.350785e-01	
276	2.665000e-10	1.800000e+00	1.800000e+00	8.350423e-01	
277	2.675000e-10	1.800000e+00	1.800000e+00	8.350055e-01	
278	2.685000e-10	1.800000e+00	1.800000e+00	8.349682e-01	
279	2.695000e-10	1.800000e+00	1.800000e+00	8.349304e-01	
280	2.705000e-10	1.800000e+00	1.800000e+00	8.348920e-01	
281	2.715000e-10	1.800000e+00	1.800000e+00	8.348530e-01	
282	2.725000e-10	1.800000e+00	1.800000e+00	8.348134e-01	
283	2.735000e-10	1.800000e+00	1.800000e+00	8.347732e-01	
284	2.745000e-10	1.800000e+00	1.800000e+00	8.347325e-01	
285	2.755000e-10	1.800000e+00	1.800000e+00	8.346912e-01	
286	2.765000e-10	1.800000e+00	1.800000e+00	8.346492e-01	

Index   time            v(c)            v(din)          v(q)            
--------------------------------------------------------------------------------
287	2.775000e-10	1.800000e+00	1.800000e+00	8.346067e-01	
288	2.785000e-10	1.800000e+00	1.800000e+00	8.345635e-01	
289	2.795000e-10	1.800000e+00	1.800000e+00	8.345198e-01	
290	2.805000e-10	1.800000e+00	1.800000e+00	8.344754e-01	
291	2.815000e-10	1.800000e+00	1.800000e+00	8.344303e-01	
292	2.825000e-10	1.800000e+00	1.800000e+00	8.343846e-01	
293	2.835000e-10	1.800000e+00	1.800000e+00	8.343383e-01	
294	2.845000e-10	1.800000e+00	1.800000e+00	8.342913e-01	
295	2.855000e-10	1.800000e+00	1.800000e+00	8.342437e-01	
296	2.865000e-10	1.800000e+00	1.800000e+00	8.341954e-01	
297	2.875000e-10	1.800000e+00	1.800000e+00	8.341464e-01	
298	2.885000e-10	1.800000e+00	1.800000e+00	8.340967e-01	
299	2.895000e-10	1.800000e+00	1.800000e+00	8.340463e-01	
300	2.905000e-10	1.800000e+00	1.800000e+00	8.339953e-01	
301	2.915000e-10	1.800000e+00	1.800000e+00	8.339435e-01	
302	2.925000e-10	1.800000e+00	1.800000e+00	8.338910e-01	
303	2.935000e-10	1.800000e+00	1.800000e+00	8.338378e-01	
304	2.945000e-10	1.800000e+00	1.800000e+00	8.337838e-01	
305	2.955000e-10	1.800000e+00	1.800000e+00	8.337291e-01	
306	2.965000e-10	1.800000e+00	1.800000e+00	8.336737e-01	
307	2.975000e-10	1.800000e+00	1.800000e+00	8.336175e-01	
308	2.985000e-10	1.800000e+00	1.800000e+00	8.335605e-01	
309	2.995000e-10	1.800000e+00	1.800000e+00	8.335027e-01	
310	3.005000e-10	1.800000e+00	1.800000e+00	8.334442e-01	
311	3.015000e-10	1.800000e+00	1.800000e+00	8.333849e-01	
312	3.025000e-10	1.800000e+00	1.800000e+00	8.333248e-01	
313	3.035000e-10	1.800000e+00	1.800000e+00	8.332638e-01	
314	3.045000e-10	1.800000e+00	1.800000e+00	8.332021e-01	
315	3.055000e-10	1.800000e+00	1.800000e+00	8.331395e-01	
316	3.065000e-10	1.800000e+00	1.800000e+00	8.330761e-01	
317	3.075000e-10	1.800000e+00	1.800000e+00	8.330118e-01	
318	3.085000e-10	1.800000e+00	1.800000e+00	8.329467e-01	
319	3.095000e-10	1.800000e+00	1.800000e+00	8.328807e-01	
320	3.105000e-10	1.800000e+00	1.800000e+00	8.328138e-01	
321	3.115000e-10	1.800000e+00	1.800000e+00	8.327461e-01	
322	3.125000e-10	1.800000e+00	1.800000e+00	8.326774e-01	
323	3.135000e-10	1.800000e+00	1.800000e+00	8.326079e-01	
324	3.145000e-10	1.800000e+00	1.800000e+00	8.325374e-01	
325	3.155000e-10	1.800000e+00	1.800000e+00	8.324660e-01	
326	3.165000e-10	1.800000e+00	1.800000e+00	8.323936e-01	
327	3.175000e-10	1.800000e+00	1.800000e+00	8.323203e-01	
328	3.185000e-10	1.800000e+00	1.800000e+00	8.322461e-01	
329	3.195000e-10	1.800000e+00	1.800000e+00	8.321708e-01	
330	3.205000e-10	1.800000e+00	1.800000e+00	8.320946e-01	
331	3.215000e-10	1.800000e+00	1.800000e+00	8.320174e-01	
